
T02BC 000:291 SEGGER J-Link V5.02c Log File (0001ms, 0267ms total)
T02BC 000:291 DLL Compiled: Sep 10 2015 17:39:31 (0001ms, 0267ms total)
T02BC 000:291 Logging started @ 2019-12-11 14:53 (0001ms, 0267ms total)
T02BC 000:292 JLINK_SetWarnOutHandler(...) (0000ms, 0267ms total)
T02BC 000:292 JLINK_OpenEx(...)
Firmware: J-Link ARM V8 compiled Jan 31 2018 18:34:52
Hardware: V8.00
S/N: 20080643
Feature(s): RDI,FlashDL,FlashBP,JFlash,GDBFull  returns O.K. (0267ms, 0534ms total)
T02BC 000:559 JLINK_SetErrorOutHandler(...) (0000ms, 0534ms total)
T02BC 000:559 JLINK_ExecCommand("ProjectFile = "D:\Sun\Mesh_Power_Strip_Pro\board\evb\mesh_ali_power_strip\JLinkSettings.ini"", ...)Device "CORTEX-M4" selected.  returns 0x00 (0004ms, 0538ms total)
T02BC 000:579 JLINK_ExecCommand("Device = ARMCM4_FP", ...)Device "CORTEX-M4" selected.  returns 0x00 (0011ms, 0549ms total)
T02BC 000:590 JLINK_ExecCommand("DisableConnectionTimeout", ...)  returns 0x01 (0000ms, 0549ms total)
T02BC 000:590 JLINK_TIF_Select(JLINKARM_TIF_SWD)  returns 0x00 (0001ms, 0550ms total)
T02BC 000:591 JLINK_SetSpeed(5000) (0000ms, 0550ms total)
T02BC 000:591 JLINK_GetHardwareVersion()  returns 0x13880 (0000ms, 0550ms total)
T02BC 000:591 JLINK_GetDLLVersion()  returns 50203 (0000ms, 0550ms total)
T02BC 000:591 JLINK_GetFirmwareString(...) (0000ms, 0550ms total)
T02BC 000:605 JLINK_GetDLLVersion()  returns 50203 (0000ms, 0550ms total)
T02BC 000:605 JLINK_GetCompileDateTime() (0000ms, 0550ms total)
T02BC 000:610 JLINK_GetFirmwareString(...) (0000ms, 0550ms total)
T02BC 000:614 JLINK_GetHardwareVersion()  returns 0x13880 (0000ms, 0550ms total)
T02BC 000:633 JLINK_GetId() >0x108 TIF>Found SWD-DP with ID 0x2BA01477 >0x0D TIF> >0x21 TIF> >0x0D TIF> >0x28 TIF> >0x0D TIF> >0x28 TIF> >0x0D TIF> >0x21 TIF> >0x0D TIF> >0x28 TIF> >0x0D TIF> >0x21 TIF> >0x0D TIF> >0x21 TIF> >0x0D TIF> >0x21 TIF> >0x0D TIF> >0x28 TIF> >0x0D TIF> >0x21 TIF> >0x0D TIF> >0x28 TIF> >0x0D TIF> >0x28 TIF> >0x0D TIF> >0x21 TIF> >0x0D TIF> >0x28 TIF> >0x0D TIF> >0x28 TIF> >0x0D TIF> >0x28 TIF> >0x0D TIF> >0x21 TIF> >0x0D TIF> >0x21 TIF> >0x0D TIF> >0x28 TIF> >0x0D TIF>
 >0x21 TIF> >0x0D TIF> >0x21 TIF>Found Cortex-M4 r0p1, Little endian. >0x0D TIF> >0x28 TIF> -- CPU_ReadMem(4 bytes @ 0xE000EDF0) -- CPU_ReadMem(4 bytes @ 0xE0002000)FPUnit: 6 code (BP) slots and 2 literal slots -- CPU_ReadMem(4 bytes @ 0xE000EDFC) -- CPU_ReadMem(4 bytes @ 0xE0001000) -- CPU_WriteMem(4 bytes @ 0xE0001000) -- CPU_ReadMem(4 bytes @ 0xE000ED88) -- CPU_WriteMem(4 bytes @ 0xE000ED88) -- CPU_ReadMem(4 bytes @ 0xE000ED88) -- CPU_WriteMem(4 bytes @ 0xE000ED88)CoreSight components:
ROMTbl 0 @ E00FF000 -- CPU_ReadMem(16 bytes @ 0xE00FF000) -- CPU_ReadMem(16 bytes @ 0xE000EFF0) -- CPU_ReadMem(16 bytes @ 0xE000EFE0)ROMTbl 0 [0]: FFF0F000, CID: B105E00D, PID: 000BB00C SCS -- CPU_ReadMem(16 bytes @ 0xE0001FF0) -- CPU_ReadMem(16 bytes @ 0xE0001FE0)ROMTbl 0 [1]: FFF02000, CID: B105E00D, PID: 003BB002 DWT -- CPU_ReadMem(16 bytes @ 0xE0002FF0) -- CPU_ReadMem(16 bytes @ 0xE0002FE0)ROMTbl 0 [2]: FFF03000, CID: B105E00D, PID: 002BB003 FPB -- CPU_ReadMem(16 bytes @ 0xE0000FF0)
 -- CPU_ReadMem(16 bytes @ 0xE0000FE0)ROMTbl 0 [3]: FFF01000, CID: B105E00D, PID: 003BB001 ITM -- CPU_ReadMem(16 bytes @ 0xE00FF010) -- CPU_ReadMem(16 bytes @ 0xE0040FF0) -- CPU_ReadMem(16 bytes @ 0xE0040FE0)ROMTbl 0 [4]: FFF41000, CID: B105900D, PID: 000BB9A1 TPIU >0x0D TIF> >0x21 TIF>  returns 0x2BA01477 (0069ms, 0619ms total)
T02BC 000:702 JLINK_GetDeviceFamily()  returns 14 (0000ms, 0619ms total)
T02BC 000:706 JLINK_ReadMem (0xE00FFFF0, 0x0010 Bytes, ...) -- CPU is running -- CPU_ReadMem(16 bytes @ 0xE00FFFF0) - Data: 0D 00 00 00 10 00 00 00 05 00 00 00 B1 00 00 00  returns 0x00 (0001ms, 0620ms total)
T02BC 000:707 JLINK_ReadMem (0xE00FFFD0, 0x0020 Bytes, ...) -- CPU is running -- CPU_ReadMem(32 bytes @ 0xE00FFFD0) - Data: 04 00 00 00 00 00 00 00 00 00 00 00 00 00 00 00 ...  returns 0x00 (0001ms, 0621ms total)
T02BC 000:708 JLINK_ReadMem (0xE00FF000, 0x0018 Bytes, ...) -- CPU is running -- CPU_ReadMem(24 bytes @ 0xE00FF000) - Data: 03 F0 F0 FF 03 20 F0 FF 03 30 F0 FF 03 10 F0 FF ...  returns 0x00 (0000ms, 0621ms total)
T02BC 000:708 JLINK_ReadMemU32(0xE000ED00, 0x0001 Items, ...) -- CPU is running -- CPU_ReadMem(4 bytes @ 0xE000ED00) - Data: 41 C2 0F 41  returns 0x01 (0001ms, 0622ms total)
T02BC 000:709 JLINK_ReadMemU32(0xE000EF40, 0x0001 Items, ...) -- CPU is running -- CPU_ReadMem(4 bytes @ 0xE000EF40) - Data: 21 00 11 10  returns 0x01 (0000ms, 0622ms total)
T02BC 000:709 JLINK_ReadMemU32(0xE000EF44, 0x0001 Items, ...) -- CPU is running -- CPU_ReadMem(4 bytes @ 0xE000EF44) - Data: 11 00 00 11  returns 0x01 (0001ms, 0623ms total)
T02BC 000:710 JLINK_SetResetType(JLINKARM_RESET_TYPE_BP0)  returns JLINKARM_RESET_TYPE_NORMAL (0000ms, 0623ms total)
T02BC 000:710 JLINK_Reset() -- CPU_WriteMem(4 bytes @ 0xE0002000) -- CPU_ReadMem(4 bytes @ 0xE000EDFC) -- CPU_WriteMem(4 bytes @ 0xE000EDFC) -- CPU_ReadMem(4 bytes @ 0xE0001000) (0007ms, 0630ms total)
T02BC 000:717 JLINK_Halt()  returns 0x00 (0000ms, 0630ms total)
T02BC 000:717 JLINK_IsHalted()  returns TRUE (0000ms, 0630ms total)
T02BC 000:717 JLINK_ReadMemU32(0xE000EDF0, 0x0001 Items, ...) -- CPU_ReadMem(4 bytes @ 0xE000EDF0) - Data: 03 00 03 00  returns 0x01 (0000ms, 0630ms total)
T02BC 000:717 JLINK_WriteU32(0xE000EDF0, 0xA05F0003) -- CPU_WriteMem(4 bytes @ 0xE000EDF0)  returns 0x00 (0001ms, 0631ms total)
T02BC 000:718 JLINK_WriteU32(0xE000EDFC, 0x01000000) -- CPU_WriteMem(4 bytes @ 0xE000EDFC)  returns 0x00 (0000ms, 0631ms total)
T02BC 000:733 JLINK_GetHWStatus(...)  returns 0x00 (0000ms, 0631ms total)
T02BC 000:744 JLINK_GetNumBPUnits(Type = 0xFFFFFF00)  returns 0x06 (0000ms, 0631ms total)
T02BC 000:744 JLINK_GetNumBPUnits(Type = 0xF0)  returns 0x2000 (0000ms, 0631ms total)
T02BC 000:744 JLINK_GetNumWPUnits()  returns 0x04 (0000ms, 0631ms total)
T02BC 000:755 JLINK_GetSpeed()  returns 0xFA0 (0000ms, 0631ms total)
T02BC 000:762 JLINK_ReadMemU32(0xE000E004, 0x0001 Items, ...) -- CPU_ReadMem(4 bytes @ 0xE000E004) - Data: 00 00 00 00  returns 0x01 (0024ms, 0655ms total)
T02BC 000:786 JLINK_ReadMemU32(0xE000E004, 0x0001 Items, ...) -- CPU_ReadMem(4 bytes @ 0xE000E004) - Data: 00 00 00 00  returns 0x01 (0001ms, 0656ms total)
T02BC 000:787 JLINK_WriteMem(0xE0001000, 0x001C Bytes, ...) - Data: 01 00 00 00 00 00 00 00 00 00 00 00 00 00 00 00 ... -- CPU_WriteMem(28 bytes @ 0xE0001000)  returns 0x1C (0001ms, 0657ms total)
T02BC 000:788 JLINK_ReadMem (0xE0001000, 0x001C Bytes, ...) -- CPU_ReadMem(28 bytes @ 0xE0001000) - Data: 01 00 00 40 00 00 00 00 00 00 00 00 00 00 00 00 ...  returns 0x00 (0001ms, 0658ms total)
T02BC 000:789 JLINK_Halt()  returns 0x00 (0000ms, 0658ms total)
T02BC 000:789 JLINK_IsHalted()  returns TRUE (0000ms, 0658ms total)
T02BC 000:795 JLINK_WriteMem(0x00200000, 0x2820 Bytes, ...) - Data: 00 BE 0A E0 0D 78 2D 06 68 40 08 24 40 00 00 D3 ... -- CPU_WriteMem(10272 bytes @ 0x00200000)  returns 0x2820 (0057ms, 0715ms total)
T02BC 000:853 JLINK_WriteReg(R0, 0x00800000)  returns 0x00 (0000ms, 0716ms total)
T02BC 000:853 JLINK_WriteReg(R1, 0x02625A00)  returns 0x00 (0000ms, 0716ms total)
T02BC 000:853 JLINK_WriteReg(R2, 0x00000001)  returns 0x00 (0000ms, 0716ms total)
T02BC 000:853 JLINK_WriteReg(R3, 0x00000000)  returns 0x00 (0000ms, 0716ms total)
T02BC 000:853 JLINK_WriteReg(R4, 0x00000000)  returns 0x00 (0000ms, 0716ms total)
T02BC 000:853 JLINK_WriteReg(R5, 0x00000000)  returns 0x00 (0000ms, 0716ms total)
T02BC 000:853 JLINK_WriteReg(R6, 0x00000000)  returns 0x00 (0000ms, 0716ms total)
T02BC 000:853 JLINK_WriteReg(R7, 0x00000000)  returns 0x00 (0000ms, 0716ms total)
T02BC 000:853 JLINK_WriteReg(R8, 0x00000000)  returns 0x00 (0000ms, 0716ms total)
T02BC 000:853 JLINK_WriteReg(R9, 0x00202720)  returns 0x00 (0000ms, 0716ms total)
T02BC 000:853 JLINK_WriteReg(R10, 0x00000000)  returns 0x00 (0000ms, 0716ms total)
T02BC 000:853 JLINK_WriteReg(R11, 0x00000000)  returns 0x00 (0000ms, 0716ms total)
T02BC 000:853 JLINK_WriteReg(R12, 0x00000000)  returns 0x00 (0000ms, 0716ms total)
T02BC 000:853 JLINK_WriteReg(R13 (SP), 0x00204000)  returns 0x00 (0000ms, 0716ms total)
T02BC 000:853 JLINK_WriteReg(R14, 0x00200001)  returns 0x00 (0000ms, 0716ms total)
T02BC 000:853 JLINK_WriteReg(R15 (PC), 0x002000D4)  returns 0x00 (0001ms, 0717ms total)
T02BC 000:854 JLINK_WriteReg(XPSR, 0x01000000)  returns 0x00 (0000ms, 0717ms total)
T02BC 000:854 JLINK_WriteReg(MSP, 0x00204000)  returns 0x00 (0000ms, 0717ms total)
T02BC 000:854 JLINK_WriteReg(PSP, 0x00204000)  returns 0x00 (0000ms, 0717ms total)
T02BC 000:854 JLINK_WriteReg(CFBP, 0x00000000)  returns 0x00 (0000ms, 0717ms total)
T02BC 000:854 JLINK_SetBPEx(Addr = 0x00200000, Type = 0xFFFFFFF2)  returns 0x00000001 (0000ms, 0717ms total)
T02BC 000:854 JLINK_Go() -- CPU_WriteMem(4 bytes @ 0xE0002000) -- CPU_ReadMem(4 bytes @ 0xE0001000) -- CPU_WriteMem(4 bytes @ 0xE0002008) -- CPU_WriteMem(4 bytes @ 0xE000200C) -- CPU_WriteMem(4 bytes @ 0xE0002010) -- CPU_WriteMem(4 bytes @ 0xE0002014) -- CPU_WriteMem(4 bytes @ 0xE0002018) -- CPU_WriteMem(4 bytes @ 0xE000201C) -- CPU_WriteMem(4 bytes @ 0xE0001004) (0005ms, 0722ms total)
T02BC 000:859 JLINK_IsHalted()  returns FALSE (0000ms, 0722ms total)
T02BC 000:909 JLINK_IsHalted()  returns TRUE (0003ms, 0725ms total)
T02BC 000:912 JLINK_ReadReg(R15 (PC))  returns 0x00200000 (0000ms, 0722ms total)
T02BC 000:912 JLINK_ClrBPEx(BPHandle = 0x00000001)  returns 0x00 (0000ms, 0722ms total)
T02BC 000:912 JLINK_ReadReg(R0)  returns 0x00000000 (0000ms, 0722ms total)
T02BC 000:912 JLINK_WriteReg(R0, 0x0080E000)  returns 0x00 (0000ms, 0722ms total)
T02BC 000:913 JLINK_WriteReg(R1, 0x00001000)  returns 0x00 (0000ms, 0722ms total)
T02BC 000:913 JLINK_WriteReg(R2, 0x000000FF)  returns 0x00 (0000ms, 0722ms total)
T02BC 000:913 JLINK_WriteReg(R3, 0x00000000)  returns 0x00 (0000ms, 0722ms total)
T02BC 000:913 JLINK_WriteReg(R4, 0x00000000)  returns 0x00 (0000ms, 0722ms total)
T02BC 000:913 JLINK_WriteReg(R5, 0x00000000)  returns 0x00 (0000ms, 0722ms total)
T02BC 000:913 JLINK_WriteReg(R6, 0x00000000)  returns 0x00 (0000ms, 0722ms total)
T02BC 000:913 JLINK_WriteReg(R7, 0x00000000)  returns 0x00 (0000ms, 0722ms total)
T02BC 000:913 JLINK_WriteReg(R8, 0x00000000)  returns 0x00 (0000ms, 0722ms total)
T02BC 000:913 JLINK_WriteReg(R9, 0x00202720)  returns 0x00 (0000ms, 0722ms total)
T02BC 000:913 JLINK_WriteReg(R10, 0x00000000)  returns 0x00 (0000ms, 0722ms total)
T02BC 000:913 JLINK_WriteReg(R11, 0x00000000)  returns 0x00 (0000ms, 0722ms total)
T02BC 000:913 JLINK_WriteReg(R12, 0x00000000)  returns 0x00 (0000ms, 0722ms total)
T02BC 000:913 JLINK_WriteReg(R13 (SP), 0x00204000)  returns 0x00 (0000ms, 0722ms total)
T02BC 000:913 JLINK_WriteReg(R14, 0x00200001)  returns 0x00 (0000ms, 0722ms total)
T02BC 000:913 JLINK_WriteReg(R15 (PC), 0x00200020)  returns 0x00 (0000ms, 0722ms total)
T02BC 000:913 JLINK_WriteReg(XPSR, 0x01000000)  returns 0x00 (0000ms, 0722ms total)
T02BC 000:913 JLINK_WriteReg(MSP, 0x00204000)  returns 0x00 (0000ms, 0722ms total)
T02BC 000:913 JLINK_WriteReg(PSP, 0x00204000)  returns 0x00 (0000ms, 0722ms total)
T02BC 000:914 JLINK_WriteReg(CFBP, 0x00000000)  returns 0x00 (0000ms, 0723ms total)
T02BC 000:914 JLINK_SetBPEx(Addr = 0x00200000, Type = 0xFFFFFFF2)  returns 0x00000002 (0000ms, 0723ms total)
T02BC 000:914 JLINK_Go() -- CPU_WriteMem(4 bytes @ 0xE0002000) -- CPU_ReadMem(4 bytes @ 0xE0001000) (0002ms, 0725ms total)
T02BC 000:916 JLINK_IsHalted()  returns TRUE (0003ms, 0728ms total)
T02BC 000:919 JLINK_ReadReg(R15 (PC))  returns 0x00200000 (0000ms, 0725ms total)
T02BC 000:920 JLINK_ClrBPEx(BPHandle = 0x00000002)  returns 0x00 (0000ms, 0726ms total)
T02BC 000:920 JLINK_ReadReg(R0)  returns 0x00000001 (0000ms, 0726ms total)
T02BC 000:920 JLINK_WriteReg(R0, 0x0080E000)  returns 0x00 (0000ms, 0726ms total)
T02BC 000:920 JLINK_WriteReg(R1, 0x00001000)  returns 0x00 (0000ms, 0726ms total)
T02BC 000:920 JLINK_WriteReg(R2, 0x000000FF)  returns 0x00 (0000ms, 0726ms total)
T02BC 000:920 JLINK_WriteReg(R3, 0x00000000)  returns 0x00 (0000ms, 0726ms total)
T02BC 000:920 JLINK_WriteReg(R4, 0x00000000)  returns 0x00 (0000ms, 0726ms total)
T02BC 000:920 JLINK_WriteReg(R5, 0x00000000)  returns 0x00 (0000ms, 0726ms total)
T02BC 000:920 JLINK_WriteReg(R6, 0x00000000)  returns 0x00 (0000ms, 0726ms total)
T02BC 000:920 JLINK_WriteReg(R7, 0x00000000)  returns 0x00 (0000ms, 0726ms total)
T02BC 000:920 JLINK_WriteReg(R8, 0x00000000)  returns 0x00 (0000ms, 0726ms total)
T02BC 000:920 JLINK_WriteReg(R9, 0x00202720)  returns 0x00 (0000ms, 0726ms total)
T02BC 000:920 JLINK_WriteReg(R10, 0x00000000)  returns 0x00 (0000ms, 0726ms total)
T02BC 000:920 JLINK_WriteReg(R11, 0x00000000)  returns 0x00 (0000ms, 0726ms total)
T02BC 000:920 JLINK_WriteReg(R12, 0x00000000)  returns 0x00 (0000ms, 0726ms total)
T02BC 000:920 JLINK_WriteReg(R13 (SP), 0x00204000)  returns 0x00 (0000ms, 0726ms total)
T02BC 000:920 JLINK_WriteReg(R14, 0x00200001)  returns 0x00 (0000ms, 0726ms total)
T02BC 000:920 JLINK_WriteReg(R15 (PC), 0x00200178)  returns 0x00 (0001ms, 0727ms total)
T02BC 000:921 JLINK_WriteReg(XPSR, 0x01000000)  returns 0x00 (0000ms, 0727ms total)
T02BC 000:921 JLINK_WriteReg(MSP, 0x00204000)  returns 0x00 (0000ms, 0727ms total)
T02BC 000:921 JLINK_WriteReg(PSP, 0x00204000)  returns 0x00 (0000ms, 0727ms total)
T02BC 000:921 JLINK_WriteReg(CFBP, 0x00000000)  returns 0x00 (0000ms, 0727ms total)
T02BC 000:921 JLINK_SetBPEx(Addr = 0x00200000, Type = 0xFFFFFFF2)  returns 0x00000003 (0000ms, 0727ms total)
T02BC 000:921 JLINK_Go() -- CPU_WriteMem(4 bytes @ 0xE0002000) -- CPU_ReadMem(4 bytes @ 0xE0001000) (0002ms, 0729ms total)
T02BC 000:923 JLINK_IsHalted()  returns FALSE (0001ms, 0730ms total)
T02BC 000:975 JLINK_IsHalted()  returns FALSE (0000ms, 0729ms total)
T02BC 001:026 JLINK_IsHalted()  returns TRUE (0003ms, 0732ms total)
T02BC 001:029 JLINK_ReadReg(R15 (PC))  returns 0x00200000 (0000ms, 0729ms total)
T02BC 001:029 JLINK_ClrBPEx(BPHandle = 0x00000003)  returns 0x00 (0000ms, 0729ms total)
T02BC 001:029 JLINK_ReadReg(R0)  returns 0x00000000 (0000ms, 0729ms total)
T02BC 001:031 JLINK_WriteReg(R0, 0x0080F000)  returns 0x00 (0000ms, 0729ms total)
T02BC 001:031 JLINK_WriteReg(R1, 0x00001000)  returns 0x00 (0000ms, 0729ms total)
T02BC 001:031 JLINK_WriteReg(R2, 0x000000FF)  returns 0x00 (0000ms, 0729ms total)
T02BC 001:031 JLINK_WriteReg(R3, 0x00000000)  returns 0x00 (0000ms, 0729ms total)
T02BC 001:031 JLINK_WriteReg(R4, 0x00000000)  returns 0x00 (0000ms, 0729ms total)
T02BC 001:031 JLINK_WriteReg(R5, 0x00000000)  returns 0x00 (0000ms, 0729ms total)
T02BC 001:031 JLINK_WriteReg(R6, 0x00000000)  returns 0x00 (0000ms, 0729ms total)
T02BC 001:031 JLINK_WriteReg(R7, 0x00000000)  returns 0x00 (0000ms, 0729ms total)
T02BC 001:031 JLINK_WriteReg(R8, 0x00000000)  returns 0x00 (0000ms, 0729ms total)
T02BC 001:031 JLINK_WriteReg(R9, 0x00202720)  returns 0x00 (0000ms, 0729ms total)
T02BC 001:031 JLINK_WriteReg(R10, 0x00000000)  returns 0x00 (0000ms, 0729ms total)
T02BC 001:031 JLINK_WriteReg(R11, 0x00000000)  returns 0x00 (0000ms, 0729ms total)
T02BC 001:031 JLINK_WriteReg(R12, 0x00000000)  returns 0x00 (0000ms, 0729ms total)
T02BC 001:031 JLINK_WriteReg(R13 (SP), 0x00204000)  returns 0x00 (0000ms, 0729ms total)
T02BC 001:031 JLINK_WriteReg(R14, 0x00200001)  returns 0x00 (0000ms, 0729ms total)
T02BC 001:031 JLINK_WriteReg(R15 (PC), 0x00200020)  returns 0x00 (0000ms, 0729ms total)
T02BC 001:032 JLINK_WriteReg(XPSR, 0x01000000)  returns 0x00 (0000ms, 0730ms total)
T02BC 001:032 JLINK_WriteReg(MSP, 0x00204000)  returns 0x00 (0000ms, 0730ms total)
T02BC 001:032 JLINK_WriteReg(PSP, 0x00204000)  returns 0x00 (0000ms, 0730ms total)
T02BC 001:032 JLINK_WriteReg(CFBP, 0x00000000)  returns 0x00 (0000ms, 0730ms total)
T02BC 001:032 JLINK_SetBPEx(Addr = 0x00200000, Type = 0xFFFFFFF2)  returns 0x00000004 (0000ms, 0730ms total)
T02BC 001:032 JLINK_Go() -- CPU_WriteMem(4 bytes @ 0xE0002000) -- CPU_ReadMem(4 bytes @ 0xE0001000) (0002ms, 0732ms total)
T02BC 001:034 JLINK_IsHalted()  returns TRUE (0004ms, 0736ms total)
T02BC 001:038 JLINK_ReadReg(R15 (PC))  returns 0x00200000 (0000ms, 0732ms total)
T02BC 001:038 JLINK_ClrBPEx(BPHandle = 0x00000004)  returns 0x00 (0000ms, 0732ms total)
T02BC 001:038 JLINK_ReadReg(R0)  returns 0x00000001 (0000ms, 0732ms total)
T02BC 001:038 JLINK_WriteReg(R0, 0x0080F000)  returns 0x00 (0000ms, 0732ms total)
T02BC 001:038 JLINK_WriteReg(R1, 0x00001000)  returns 0x00 (0000ms, 0732ms total)
T02BC 001:038 JLINK_WriteReg(R2, 0x000000FF)  returns 0x00 (0000ms, 0732ms total)
T02BC 001:038 JLINK_WriteReg(R3, 0x00000000)  returns 0x00 (0000ms, 0732ms total)
T02BC 001:038 JLINK_WriteReg(R4, 0x00000000)  returns 0x00 (0000ms, 0732ms total)
T02BC 001:038 JLINK_WriteReg(R5, 0x00000000)  returns 0x00 (0000ms, 0732ms total)
T02BC 001:038 JLINK_WriteReg(R6, 0x00000000)  returns 0x00 (0000ms, 0732ms total)
T02BC 001:038 JLINK_WriteReg(R7, 0x00000000)  returns 0x00 (0000ms, 0732ms total)
T02BC 001:038 JLINK_WriteReg(R8, 0x00000000)  returns 0x00 (0001ms, 0733ms total)
T02BC 001:039 JLINK_WriteReg(R9, 0x00202720)  returns 0x00 (0000ms, 0733ms total)
T02BC 001:039 JLINK_WriteReg(R10, 0x00000000)  returns 0x00 (0000ms, 0733ms total)
T02BC 001:039 JLINK_WriteReg(R11, 0x00000000)  returns 0x00 (0000ms, 0733ms total)
T02BC 001:039 JLINK_WriteReg(R12, 0x00000000)  returns 0x00 (0000ms, 0733ms total)
T02BC 001:039 JLINK_WriteReg(R13 (SP), 0x00204000)  returns 0x00 (0000ms, 0733ms total)
T02BC 001:039 JLINK_WriteReg(R14, 0x00200001)  returns 0x00 (0000ms, 0733ms total)
T02BC 001:039 JLINK_WriteReg(R15 (PC), 0x00200178)  returns 0x00 (0000ms, 0733ms total)
T02BC 001:039 JLINK_WriteReg(XPSR, 0x01000000)  returns 0x00 (0000ms, 0733ms total)
T02BC 001:039 JLINK_WriteReg(MSP, 0x00204000)  returns 0x00 (0000ms, 0733ms total)
T02BC 001:039 JLINK_WriteReg(PSP, 0x00204000)  returns 0x00 (0000ms, 0733ms total)
T02BC 001:039 JLINK_WriteReg(CFBP, 0x00000000)  returns 0x00 (0000ms, 0733ms total)
T02BC 001:039 JLINK_SetBPEx(Addr = 0x00200000, Type = 0xFFFFFFF2)  returns 0x00000005 (0000ms, 0733ms total)
T02BC 001:039 JLINK_Go() -- CPU_WriteMem(4 bytes @ 0xE0002000) -- CPU_ReadMem(4 bytes @ 0xE0001000) (0002ms, 0735ms total)
T02BC 001:041 JLINK_IsHalted()  returns FALSE (0001ms, 0736ms total)
T02BC 001:093 JLINK_IsHalted()  returns FALSE (0000ms, 0735ms total)
T02BC 001:144 JLINK_IsHalted()  returns TRUE (0003ms, 0738ms total)
T02BC 001:147 JLINK_ReadReg(R15 (PC))  returns 0x00200000 (0000ms, 0735ms total)
T02BC 001:147 JLINK_ClrBPEx(BPHandle = 0x00000005)  returns 0x00 (0000ms, 0735ms total)
T02BC 001:147 JLINK_ReadReg(R0)  returns 0x00000000 (0000ms, 0735ms total)
T02BC 001:148 JLINK_WriteReg(R0, 0x00810000)  returns 0x00 (0000ms, 0735ms total)
T02BC 001:148 JLINK_WriteReg(R1, 0x00001000)  returns 0x00 (0000ms, 0735ms total)
T02BC 001:148 JLINK_WriteReg(R2, 0x000000FF)  returns 0x00 (0000ms, 0735ms total)
T02BC 001:148 JLINK_WriteReg(R3, 0x00000000)  returns 0x00 (0000ms, 0735ms total)
T02BC 001:148 JLINK_WriteReg(R4, 0x00000000)  returns 0x00 (0000ms, 0735ms total)
T02BC 001:148 JLINK_WriteReg(R5, 0x00000000)  returns 0x00 (0000ms, 0735ms total)
T02BC 001:148 JLINK_WriteReg(R6, 0x00000000)  returns 0x00 (0000ms, 0735ms total)
T02BC 001:148 JLINK_WriteReg(R7, 0x00000000)  returns 0x00 (0000ms, 0735ms total)
T02BC 001:148 JLINK_WriteReg(R8, 0x00000000)  returns 0x00 (0000ms, 0735ms total)
T02BC 001:148 JLINK_WriteReg(R9, 0x00202720)  returns 0x00 (0000ms, 0735ms total)
T02BC 001:148 JLINK_WriteReg(R10, 0x00000000)  returns 0x00 (0000ms, 0735ms total)
T02BC 001:148 JLINK_WriteReg(R11, 0x00000000)  returns 0x00 (0000ms, 0735ms total)
T02BC 001:148 JLINK_WriteReg(R12, 0x00000000)  returns 0x00 (0000ms, 0735ms total)
T02BC 001:148 JLINK_WriteReg(R13 (SP), 0x00204000)  returns 0x00 (0001ms, 0736ms total)
T02BC 001:149 JLINK_WriteReg(R14, 0x00200001)  returns 0x00 (0000ms, 0736ms total)
T02BC 001:149 JLINK_WriteReg(R15 (PC), 0x00200020)  returns 0x00 (0000ms, 0736ms total)
T02BC 001:149 JLINK_WriteReg(XPSR, 0x01000000)  returns 0x00 (0000ms, 0736ms total)
T02BC 001:149 JLINK_WriteReg(MSP, 0x00204000)  returns 0x00 (0000ms, 0736ms total)
T02BC 001:149 JLINK_WriteReg(PSP, 0x00204000)  returns 0x00 (0000ms, 0736ms total)
T02BC 001:149 JLINK_WriteReg(CFBP, 0x00000000)  returns 0x00 (0000ms, 0736ms total)
T02BC 001:149 JLINK_SetBPEx(Addr = 0x00200000, Type = 0xFFFFFFF2)  returns 0x00000006 (0000ms, 0736ms total)
T02BC 001:149 JLINK_Go() -- CPU_WriteMem(4 bytes @ 0xE0002000) -- CPU_ReadMem(4 bytes @ 0xE0001000) (0003ms, 0739ms total)
T02BC 001:152 JLINK_IsHalted()  returns TRUE (0003ms, 0742ms total)
T02BC 001:155 JLINK_ReadReg(R15 (PC))  returns 0x00200000 (0000ms, 0739ms total)
T02BC 001:155 JLINK_ClrBPEx(BPHandle = 0x00000006)  returns 0x00 (0000ms, 0739ms total)
T02BC 001:155 JLINK_ReadReg(R0)  returns 0x00000001 (0000ms, 0739ms total)
T02BC 001:155 JLINK_WriteReg(R0, 0x00810000)  returns 0x00 (0000ms, 0739ms total)
T02BC 001:155 JLINK_WriteReg(R1, 0x00001000)  returns 0x00 (0000ms, 0739ms total)
T02BC 001:155 JLINK_WriteReg(R2, 0x000000FF)  returns 0x00 (0000ms, 0739ms total)
T02BC 001:155 JLINK_WriteReg(R3, 0x00000000)  returns 0x00 (0000ms, 0739ms total)
T02BC 001:155 JLINK_WriteReg(R4, 0x00000000)  returns 0x00 (0001ms, 0740ms total)
T02BC 001:156 JLINK_WriteReg(R5, 0x00000000)  returns 0x00 (0000ms, 0740ms total)
T02BC 001:156 JLINK_WriteReg(R6, 0x00000000)  returns 0x00 (0000ms, 0740ms total)
T02BC 001:156 JLINK_WriteReg(R7, 0x00000000)  returns 0x00 (0000ms, 0740ms total)
T02BC 001:156 JLINK_WriteReg(R8, 0x00000000)  returns 0x00 (0000ms, 0740ms total)
T02BC 001:156 JLINK_WriteReg(R9, 0x00202720)  returns 0x00 (0000ms, 0740ms total)
T02BC 001:156 JLINK_WriteReg(R10, 0x00000000)  returns 0x00 (0000ms, 0740ms total)
T02BC 001:156 JLINK_WriteReg(R11, 0x00000000)  returns 0x00 (0000ms, 0740ms total)
T02BC 001:156 JLINK_WriteReg(R12, 0x00000000)  returns 0x00 (0000ms, 0740ms total)
T02BC 001:156 JLINK_WriteReg(R13 (SP), 0x00204000)  returns 0x00 (0000ms, 0740ms total)
T02BC 001:156 JLINK_WriteReg(R14, 0x00200001)  returns 0x00 (0000ms, 0740ms total)
T02BC 001:156 JLINK_WriteReg(R15 (PC), 0x00200178)  returns 0x00 (0000ms, 0740ms total)
T02BC 001:156 JLINK_WriteReg(XPSR, 0x01000000)  returns 0x00 (0000ms, 0740ms total)
T02BC 001:156 JLINK_WriteReg(MSP, 0x00204000)  returns 0x00 (0000ms, 0740ms total)
T02BC 001:156 JLINK_WriteReg(PSP, 0x00204000)  returns 0x00 (0000ms, 0740ms total)
T02BC 001:156 JLINK_WriteReg(CFBP, 0x00000000)  returns 0x00 (0000ms, 0740ms total)
T02BC 001:156 JLINK_SetBPEx(Addr = 0x00200000, Type = 0xFFFFFFF2)  returns 0x00000007 (0000ms, 0740ms total)
T02BC 001:156 JLINK_Go() -- CPU_WriteMem(4 bytes @ 0xE0002000) -- CPU_ReadMem(4 bytes @ 0xE0001000) (0003ms, 0743ms total)
T02BC 001:159 JLINK_IsHalted()  returns FALSE (0000ms, 0743ms total)
T02BC 001:210 JLINK_IsHalted()  returns FALSE (0000ms, 0743ms total)
T02BC 001:261 JLINK_IsHalted()  returns TRUE (0003ms, 0746ms total)
T02BC 001:264 JLINK_ReadReg(R15 (PC))  returns 0x00200000 (0000ms, 0743ms total)
T02BC 001:264 JLINK_ClrBPEx(BPHandle = 0x00000007)  returns 0x00 (0000ms, 0743ms total)
T02BC 001:264 JLINK_ReadReg(R0)  returns 0x00000000 (0000ms, 0743ms total)
T02BC 001:265 JLINK_WriteReg(R0, 0x00811000)  returns 0x00 (0000ms, 0743ms total)
T02BC 001:265 JLINK_WriteReg(R1, 0x00001000)  returns 0x00 (0000ms, 0743ms total)
T02BC 001:265 JLINK_WriteReg(R2, 0x000000FF)  returns 0x00 (0000ms, 0743ms total)
T02BC 001:265 JLINK_WriteReg(R3, 0x00000000)  returns 0x00 (0000ms, 0743ms total)
T02BC 001:265 JLINK_WriteReg(R4, 0x00000000)  returns 0x00 (0000ms, 0743ms total)
T02BC 001:265 JLINK_WriteReg(R5, 0x00000000)  returns 0x00 (0000ms, 0743ms total)
T02BC 001:265 JLINK_WriteReg(R6, 0x00000000)  returns 0x00 (0000ms, 0743ms total)
T02BC 001:265 JLINK_WriteReg(R7, 0x00000000)  returns 0x00 (0000ms, 0743ms total)
T02BC 001:265 JLINK_WriteReg(R8, 0x00000000)  returns 0x00 (0000ms, 0743ms total)
T02BC 001:265 JLINK_WriteReg(R9, 0x00202720)  returns 0x00 (0000ms, 0743ms total)
T02BC 001:265 JLINK_WriteReg(R10, 0x00000000)  returns 0x00 (0000ms, 0743ms total)
T02BC 001:265 JLINK_WriteReg(R11, 0x00000000)  returns 0x00 (0000ms, 0743ms total)
T02BC 001:265 JLINK_WriteReg(R12, 0x00000000)  returns 0x00 (0000ms, 0743ms total)
T02BC 001:265 JLINK_WriteReg(R13 (SP), 0x00204000)  returns 0x00 (0000ms, 0743ms total)
T02BC 001:265 JLINK_WriteReg(R14, 0x00200001)  returns 0x00 (0000ms, 0743ms total)
T02BC 001:266 JLINK_WriteReg(R15 (PC), 0x00200020)  returns 0x00 (0000ms, 0744ms total)
T02BC 001:266 JLINK_WriteReg(XPSR, 0x01000000)  returns 0x00 (0000ms, 0744ms total)
T02BC 001:266 JLINK_WriteReg(MSP, 0x00204000)  returns 0x00 (0000ms, 0744ms total)
T02BC 001:266 JLINK_WriteReg(PSP, 0x00204000)  returns 0x00 (0000ms, 0744ms total)
T02BC 001:266 JLINK_WriteReg(CFBP, 0x00000000)  returns 0x00 (0000ms, 0744ms total)
T02BC 001:266 JLINK_SetBPEx(Addr = 0x00200000, Type = 0xFFFFFFF2)  returns 0x00000008 (0000ms, 0744ms total)
T02BC 001:266 JLINK_Go() -- CPU_WriteMem(4 bytes @ 0xE0002000) -- CPU_ReadMem(4 bytes @ 0xE0001000) (0002ms, 0746ms total)
T02BC 001:268 JLINK_IsHalted()  returns TRUE (0004ms, 0750ms total)
T02BC 001:272 JLINK_ReadReg(R15 (PC))  returns 0x00200000 (0000ms, 0746ms total)
T02BC 001:272 JLINK_ClrBPEx(BPHandle = 0x00000008)  returns 0x00 (0000ms, 0746ms total)
T02BC 001:272 JLINK_ReadReg(R0)  returns 0x00000001 (0000ms, 0746ms total)
T02BC 001:272 JLINK_WriteReg(R0, 0x00811000)  returns 0x00 (0000ms, 0746ms total)
T02BC 001:272 JLINK_WriteReg(R1, 0x00001000)  returns 0x00 (0000ms, 0746ms total)
T02BC 001:272 JLINK_WriteReg(R2, 0x000000FF)  returns 0x00 (0000ms, 0746ms total)
T02BC 001:272 JLINK_WriteReg(R3, 0x00000000)  returns 0x00 (0000ms, 0746ms total)
T02BC 001:272 JLINK_WriteReg(R4, 0x00000000)  returns 0x00 (0000ms, 0746ms total)
T02BC 001:272 JLINK_WriteReg(R5, 0x00000000)  returns 0x00 (0000ms, 0746ms total)
T02BC 001:272 JLINK_WriteReg(R6, 0x00000000)  returns 0x00 (0000ms, 0746ms total)
T02BC 001:272 JLINK_WriteReg(R7, 0x00000000)  returns 0x00 (0000ms, 0746ms total)
T02BC 001:273 JLINK_WriteReg(R8, 0x00000000)  returns 0x00 (0000ms, 0746ms total)
T02BC 001:273 JLINK_WriteReg(R9, 0x00202720)  returns 0x00 (0000ms, 0746ms total)
T02BC 001:273 JLINK_WriteReg(R10, 0x00000000)  returns 0x00 (0000ms, 0746ms total)
T02BC 001:273 JLINK_WriteReg(R11, 0x00000000)  returns 0x00 (0000ms, 0746ms total)
T02BC 001:273 JLINK_WriteReg(R12, 0x00000000)  returns 0x00 (0000ms, 0746ms total)
T02BC 001:273 JLINK_WriteReg(R13 (SP), 0x00204000)  returns 0x00 (0000ms, 0746ms total)
T02BC 001:273 JLINK_WriteReg(R14, 0x00200001)  returns 0x00 (0000ms, 0746ms total)
T02BC 001:273 JLINK_WriteReg(R15 (PC), 0x00200178)  returns 0x00 (0000ms, 0746ms total)
T02BC 001:273 JLINK_WriteReg(XPSR, 0x01000000)  returns 0x00 (0000ms, 0746ms total)
T02BC 001:273 JLINK_WriteReg(MSP, 0x00204000)  returns 0x00 (0000ms, 0746ms total)
T02BC 001:273 JLINK_WriteReg(PSP, 0x00204000)  returns 0x00 (0000ms, 0746ms total)
T02BC 001:273 JLINK_WriteReg(CFBP, 0x00000000)  returns 0x00 (0000ms, 0746ms total)
T02BC 001:273 JLINK_SetBPEx(Addr = 0x00200000, Type = 0xFFFFFFF2)  returns 0x00000009 (0000ms, 0746ms total)
T02BC 001:273 JLINK_Go() -- CPU_WriteMem(4 bytes @ 0xE0002000) -- CPU_ReadMem(4 bytes @ 0xE0001000) (0003ms, 0749ms total)
T02BC 001:276 JLINK_IsHalted()  returns FALSE (0000ms, 0749ms total)
T02BC 001:327 JLINK_IsHalted()  returns FALSE (0000ms, 0749ms total)
T02BC 001:378 JLINK_IsHalted()  returns TRUE (0003ms, 0752ms total)
T02BC 001:381 JLINK_ReadReg(R15 (PC))  returns 0x00200000 (0000ms, 0749ms total)
T02BC 001:381 JLINK_ClrBPEx(BPHandle = 0x00000009)  returns 0x00 (0000ms, 0749ms total)
T02BC 001:381 JLINK_ReadReg(R0)  returns 0x00000000 (0000ms, 0749ms total)
T02BC 001:382 JLINK_WriteReg(R0, 0x00812000)  returns 0x00 (0000ms, 0749ms total)
T02BC 001:382 JLINK_WriteReg(R1, 0x00001000)  returns 0x00 (0000ms, 0749ms total)
T02BC 001:382 JLINK_WriteReg(R2, 0x000000FF)  returns 0x00 (0000ms, 0749ms total)
T02BC 001:382 JLINK_WriteReg(R3, 0x00000000)  returns 0x00 (0000ms, 0749ms total)
T02BC 001:382 JLINK_WriteReg(R4, 0x00000000)  returns 0x00 (0000ms, 0749ms total)
T02BC 001:382 JLINK_WriteReg(R5, 0x00000000)  returns 0x00 (0000ms, 0749ms total)
T02BC 001:382 JLINK_WriteReg(R6, 0x00000000)  returns 0x00 (0000ms, 0749ms total)
T02BC 001:382 JLINK_WriteReg(R7, 0x00000000)  returns 0x00 (0000ms, 0749ms total)
T02BC 001:382 JLINK_WriteReg(R8, 0x00000000)  returns 0x00 (0000ms, 0749ms total)
T02BC 001:382 JLINK_WriteReg(R9, 0x00202720)  returns 0x00 (0000ms, 0749ms total)
T02BC 001:382 JLINK_WriteReg(R10, 0x00000000)  returns 0x00 (0000ms, 0749ms total)
T02BC 001:382 JLINK_WriteReg(R11, 0x00000000)  returns 0x00 (0000ms, 0749ms total)
T02BC 001:382 JLINK_WriteReg(R12, 0x00000000)  returns 0x00 (0000ms, 0749ms total)
T02BC 001:382 JLINK_WriteReg(R13 (SP), 0x00204000)  returns 0x00 (0000ms, 0749ms total)
T02BC 001:382 JLINK_WriteReg(R14, 0x00200001)  returns 0x00 (0000ms, 0749ms total)
T02BC 001:382 JLINK_WriteReg(R15 (PC), 0x00200020)  returns 0x00 (0001ms, 0750ms total)
T02BC 001:383 JLINK_WriteReg(XPSR, 0x01000000)  returns 0x00 (0000ms, 0750ms total)
T02BC 001:383 JLINK_WriteReg(MSP, 0x00204000)  returns 0x00 (0000ms, 0750ms total)
T02BC 001:383 JLINK_WriteReg(PSP, 0x00204000)  returns 0x00 (0000ms, 0750ms total)
T02BC 001:383 JLINK_WriteReg(CFBP, 0x00000000)  returns 0x00 (0000ms, 0750ms total)
T02BC 001:383 JLINK_SetBPEx(Addr = 0x00200000, Type = 0xFFFFFFF2)  returns 0x0000000A (0000ms, 0750ms total)
T02BC 001:383 JLINK_Go() -- CPU_WriteMem(4 bytes @ 0xE0002000) -- CPU_ReadMem(4 bytes @ 0xE0001000) (0003ms, 0753ms total)
T02BC 001:386 JLINK_IsHalted()  returns TRUE (0003ms, 0756ms total)
T02BC 001:389 JLINK_ReadReg(R15 (PC))  returns 0x00200000 (0000ms, 0753ms total)
T02BC 001:389 JLINK_ClrBPEx(BPHandle = 0x0000000A)  returns 0x00 (0000ms, 0753ms total)
T02BC 001:389 JLINK_ReadReg(R0)  returns 0x00000001 (0000ms, 0753ms total)
T02BC 001:389 JLINK_WriteReg(R0, 0x00812000)  returns 0x00 (0000ms, 0753ms total)
T02BC 001:389 JLINK_WriteReg(R1, 0x00001000)  returns 0x00 (0000ms, 0753ms total)
T02BC 001:389 JLINK_WriteReg(R2, 0x000000FF)  returns 0x00 (0000ms, 0753ms total)
T02BC 001:389 JLINK_WriteReg(R3, 0x00000000)  returns 0x00 (0000ms, 0753ms total)
T02BC 001:389 JLINK_WriteReg(R4, 0x00000000)  returns 0x00 (0000ms, 0753ms total)
T02BC 001:390 JLINK_WriteReg(R5, 0x00000000)  returns 0x00 (0000ms, 0753ms total)
T02BC 001:390 JLINK_WriteReg(R6, 0x00000000)  returns 0x00 (0000ms, 0753ms total)
T02BC 001:390 JLINK_WriteReg(R7, 0x00000000)  returns 0x00 (0000ms, 0753ms total)
T02BC 001:390 JLINK_WriteReg(R8, 0x00000000)  returns 0x00 (0000ms, 0753ms total)
T02BC 001:390 JLINK_WriteReg(R9, 0x00202720)  returns 0x00 (0000ms, 0753ms total)
T02BC 001:390 JLINK_WriteReg(R10, 0x00000000)  returns 0x00 (0000ms, 0753ms total)
T02BC 001:390 JLINK_WriteReg(R11, 0x00000000)  returns 0x00 (0000ms, 0753ms total)
T02BC 001:390 JLINK_WriteReg(R12, 0x00000000)  returns 0x00 (0000ms, 0753ms total)
T02BC 001:390 JLINK_WriteReg(R13 (SP), 0x00204000)  returns 0x00 (0000ms, 0753ms total)
T02BC 001:390 JLINK_WriteReg(R14, 0x00200001)  returns 0x00 (0000ms, 0753ms total)
T02BC 001:390 JLINK_WriteReg(R15 (PC), 0x00200178)  returns 0x00 (0000ms, 0753ms total)
T02BC 001:390 JLINK_WriteReg(XPSR, 0x01000000)  returns 0x00 (0000ms, 0753ms total)
T02BC 001:390 JLINK_WriteReg(MSP, 0x00204000)  returns 0x00 (0000ms, 0753ms total)
T02BC 001:390 JLINK_WriteReg(PSP, 0x00204000)  returns 0x00 (0000ms, 0753ms total)
T02BC 001:390 JLINK_WriteReg(CFBP, 0x00000000)  returns 0x00 (0000ms, 0753ms total)
T02BC 001:390 JLINK_SetBPEx(Addr = 0x00200000, Type = 0xFFFFFFF2)  returns 0x0000000B (0000ms, 0753ms total)
T02BC 001:390 JLINK_Go() -- CPU_WriteMem(4 bytes @ 0xE0002000) -- CPU_ReadMem(4 bytes @ 0xE0001000) (0003ms, 0756ms total)
T02BC 001:393 JLINK_IsHalted()  returns FALSE (0000ms, 0756ms total)
T02BC 001:445 JLINK_IsHalted()  returns FALSE (0000ms, 0756ms total)
T02BC 001:495 JLINK_IsHalted()  returns TRUE (0003ms, 0759ms total)
T02BC 001:498 JLINK_ReadReg(R15 (PC))  returns 0x00200000 (0000ms, 0756ms total)
T02BC 001:498 JLINK_ClrBPEx(BPHandle = 0x0000000B)  returns 0x00 (0000ms, 0756ms total)
T02BC 001:498 JLINK_ReadReg(R0)  returns 0x00000000 (0000ms, 0756ms total)
T02BC 001:499 JLINK_WriteReg(R0, 0x00813000)  returns 0x00 (0000ms, 0756ms total)
T02BC 001:499 JLINK_WriteReg(R1, 0x00001000)  returns 0x00 (0000ms, 0756ms total)
T02BC 001:499 JLINK_WriteReg(R2, 0x000000FF)  returns 0x00 (0000ms, 0756ms total)
T02BC 001:499 JLINK_WriteReg(R3, 0x00000000)  returns 0x00 (0000ms, 0756ms total)
T02BC 001:499 JLINK_WriteReg(R4, 0x00000000)  returns 0x00 (0000ms, 0756ms total)
T02BC 001:499 JLINK_WriteReg(R5, 0x00000000)  returns 0x00 (0000ms, 0756ms total)
T02BC 001:499 JLINK_WriteReg(R6, 0x00000000)  returns 0x00 (0000ms, 0756ms total)
T02BC 001:499 JLINK_WriteReg(R7, 0x00000000)  returns 0x00 (0000ms, 0756ms total)
T02BC 001:499 JLINK_WriteReg(R8, 0x00000000)  returns 0x00 (0000ms, 0756ms total)
T02BC 001:499 JLINK_WriteReg(R9, 0x00202720)  returns 0x00 (0000ms, 0756ms total)
T02BC 001:499 JLINK_WriteReg(R10, 0x00000000)  returns 0x00 (0000ms, 0756ms total)
T02BC 001:499 JLINK_WriteReg(R11, 0x00000000)  returns 0x00 (0000ms, 0756ms total)
T02BC 001:499 JLINK_WriteReg(R12, 0x00000000)  returns 0x00 (0000ms, 0756ms total)
T02BC 001:499 JLINK_WriteReg(R13 (SP), 0x00204000)  returns 0x00 (0001ms, 0757ms total)
T02BC 001:500 JLINK_WriteReg(R14, 0x00200001)  returns 0x00 (0000ms, 0757ms total)
T02BC 001:500 JLINK_WriteReg(R15 (PC), 0x00200020)  returns 0x00 (0000ms, 0757ms total)
T02BC 001:500 JLINK_WriteReg(XPSR, 0x01000000)  returns 0x00 (0000ms, 0757ms total)
T02BC 001:500 JLINK_WriteReg(MSP, 0x00204000)  returns 0x00 (0000ms, 0757ms total)
T02BC 001:500 JLINK_WriteReg(PSP, 0x00204000)  returns 0x00 (0000ms, 0757ms total)
T02BC 001:500 JLINK_WriteReg(CFBP, 0x00000000)  returns 0x00 (0000ms, 0757ms total)
T02BC 001:500 JLINK_SetBPEx(Addr = 0x00200000, Type = 0xFFFFFFF2)  returns 0x0000000C (0000ms, 0757ms total)
T02BC 001:500 JLINK_Go() -- CPU_WriteMem(4 bytes @ 0xE0002000) -- CPU_ReadMem(4 bytes @ 0xE0001000) (0003ms, 0760ms total)
T02BC 001:503 JLINK_IsHalted()  returns TRUE (0003ms, 0763ms total)
T02BC 001:506 JLINK_ReadReg(R15 (PC))  returns 0x00200000 (0000ms, 0760ms total)
T02BC 001:506 JLINK_ClrBPEx(BPHandle = 0x0000000C)  returns 0x00 (0000ms, 0760ms total)
T02BC 001:506 JLINK_ReadReg(R0)  returns 0x00000001 (0000ms, 0760ms total)
T02BC 001:506 JLINK_WriteReg(R0, 0x00813000)  returns 0x00 (0000ms, 0760ms total)
T02BC 001:506 JLINK_WriteReg(R1, 0x00001000)  returns 0x00 (0000ms, 0760ms total)
T02BC 001:506 JLINK_WriteReg(R2, 0x000000FF)  returns 0x00 (0000ms, 0760ms total)
T02BC 001:506 JLINK_WriteReg(R3, 0x00000000)  returns 0x00 (0000ms, 0760ms total)
T02BC 001:506 JLINK_WriteReg(R4, 0x00000000)  returns 0x00 (0000ms, 0760ms total)
T02BC 001:506 JLINK_WriteReg(R5, 0x00000000)  returns 0x00 (0001ms, 0761ms total)
T02BC 001:507 JLINK_WriteReg(R6, 0x00000000)  returns 0x00 (0000ms, 0761ms total)
T02BC 001:507 JLINK_WriteReg(R7, 0x00000000)  returns 0x00 (0000ms, 0761ms total)
T02BC 001:507 JLINK_WriteReg(R8, 0x00000000)  returns 0x00 (0000ms, 0761ms total)
T02BC 001:507 JLINK_WriteReg(R9, 0x00202720)  returns 0x00 (0000ms, 0761ms total)
T02BC 001:507 JLINK_WriteReg(R10, 0x00000000)  returns 0x00 (0000ms, 0761ms total)
T02BC 001:507 JLINK_WriteReg(R11, 0x00000000)  returns 0x00 (0000ms, 0761ms total)
T02BC 001:507 JLINK_WriteReg(R12, 0x00000000)  returns 0x00 (0000ms, 0761ms total)
T02BC 001:507 JLINK_WriteReg(R13 (SP), 0x00204000)  returns 0x00 (0000ms, 0761ms total)
T02BC 001:507 JLINK_WriteReg(R14, 0x00200001)  returns 0x00 (0000ms, 0761ms total)
T02BC 001:507 JLINK_WriteReg(R15 (PC), 0x00200178)  returns 0x00 (0000ms, 0761ms total)
T02BC 001:507 JLINK_WriteReg(XPSR, 0x01000000)  returns 0x00 (0000ms, 0761ms total)
T02BC 001:507 JLINK_WriteReg(MSP, 0x00204000)  returns 0x00 (0000ms, 0761ms total)
T02BC 001:507 JLINK_WriteReg(PSP, 0x00204000)  returns 0x00 (0000ms, 0761ms total)
T02BC 001:507 JLINK_WriteReg(CFBP, 0x00000000)  returns 0x00 (0000ms, 0761ms total)
T02BC 001:507 JLINK_SetBPEx(Addr = 0x00200000, Type = 0xFFFFFFF2)  returns 0x0000000D (0000ms, 0761ms total)
T02BC 001:507 JLINK_Go() -- CPU_WriteMem(4 bytes @ 0xE0002000) -- CPU_ReadMem(4 bytes @ 0xE0001000) (0003ms, 0764ms total)
T02BC 001:510 JLINK_IsHalted()  returns FALSE (0000ms, 0764ms total)
T02BC 001:562 JLINK_IsHalted()  returns FALSE (0000ms, 0764ms total)
T02BC 001:613 JLINK_IsHalted()  returns TRUE (0003ms, 0767ms total)
T02BC 001:616 JLINK_ReadReg(R15 (PC))  returns 0x00200000 (0000ms, 0764ms total)
T02BC 001:616 JLINK_ClrBPEx(BPHandle = 0x0000000D)  returns 0x00 (0000ms, 0764ms total)
T02BC 001:616 JLINK_ReadReg(R0)  returns 0x00000000 (0000ms, 0764ms total)
T02BC 001:617 JLINK_WriteReg(R0, 0x00814000)  returns 0x00 (0000ms, 0764ms total)
T02BC 001:617 JLINK_WriteReg(R1, 0x00001000)  returns 0x00 (0000ms, 0764ms total)
T02BC 001:617 JLINK_WriteReg(R2, 0x000000FF)  returns 0x00 (0000ms, 0764ms total)
T02BC 001:617 JLINK_WriteReg(R3, 0x00000000)  returns 0x00 (0000ms, 0764ms total)
T02BC 001:617 JLINK_WriteReg(R4, 0x00000000)  returns 0x00 (0000ms, 0764ms total)
T02BC 001:617 JLINK_WriteReg(R5, 0x00000000)  returns 0x00 (0000ms, 0764ms total)
T02BC 001:617 JLINK_WriteReg(R6, 0x00000000)  returns 0x00 (0000ms, 0764ms total)
T02BC 001:617 JLINK_WriteReg(R7, 0x00000000)  returns 0x00 (0000ms, 0764ms total)
T02BC 001:617 JLINK_WriteReg(R8, 0x00000000)  returns 0x00 (0000ms, 0764ms total)
T02BC 001:617 JLINK_WriteReg(R9, 0x00202720)  returns 0x00 (0000ms, 0764ms total)
T02BC 001:617 JLINK_WriteReg(R10, 0x00000000)  returns 0x00 (0000ms, 0764ms total)
T02BC 001:617 JLINK_WriteReg(R11, 0x00000000)  returns 0x00 (0000ms, 0764ms total)
T02BC 001:617 JLINK_WriteReg(R12, 0x00000000)  returns 0x00 (0000ms, 0764ms total)
T02BC 001:617 JLINK_WriteReg(R13 (SP), 0x00204000)  returns 0x00 (0000ms, 0764ms total)
T02BC 001:617 JLINK_WriteReg(R14, 0x00200001)  returns 0x00 (0000ms, 0764ms total)
T02BC 001:617 JLINK_WriteReg(R15 (PC), 0x00200020)  returns 0x00 (0001ms, 0765ms total)
T02BC 001:618 JLINK_WriteReg(XPSR, 0x01000000)  returns 0x00 (0000ms, 0765ms total)
T02BC 001:618 JLINK_WriteReg(MSP, 0x00204000)  returns 0x00 (0000ms, 0765ms total)
T02BC 001:618 JLINK_WriteReg(PSP, 0x00204000)  returns 0x00 (0000ms, 0765ms total)
T02BC 001:618 JLINK_WriteReg(CFBP, 0x00000000)  returns 0x00 (0000ms, 0765ms total)
T02BC 001:618 JLINK_SetBPEx(Addr = 0x00200000, Type = 0xFFFFFFF2)  returns 0x0000000E (0000ms, 0765ms total)
T02BC 001:618 JLINK_Go() -- CPU_WriteMem(4 bytes @ 0xE0002000) -- CPU_ReadMem(4 bytes @ 0xE0001000) (0003ms, 0768ms total)
T02BC 001:621 JLINK_IsHalted()  returns TRUE (0003ms, 0771ms total)
T02BC 001:624 JLINK_ReadReg(R15 (PC))  returns 0x00200000 (0000ms, 0768ms total)
T02BC 001:624 JLINK_ClrBPEx(BPHandle = 0x0000000E)  returns 0x00 (0000ms, 0768ms total)
T02BC 001:624 JLINK_ReadReg(R0)  returns 0x00000001 (0000ms, 0768ms total)
T02BC 001:624 JLINK_WriteReg(R0, 0x00814000)  returns 0x00 (0000ms, 0768ms total)
T02BC 001:624 JLINK_WriteReg(R1, 0x00001000)  returns 0x00 (0000ms, 0768ms total)
T02BC 001:624 JLINK_WriteReg(R2, 0x000000FF)  returns 0x00 (0000ms, 0768ms total)
T02BC 001:624 JLINK_WriteReg(R3, 0x00000000)  returns 0x00 (0000ms, 0768ms total)
T02BC 001:624 JLINK_WriteReg(R4, 0x00000000)  returns 0x00 (0000ms, 0768ms total)
T02BC 001:624 JLINK_WriteReg(R5, 0x00000000)  returns 0x00 (0000ms, 0768ms total)
T02BC 001:624 JLINK_WriteReg(R6, 0x00000000)  returns 0x00 (0000ms, 0768ms total)
T02BC 001:625 JLINK_WriteReg(R7, 0x00000000)  returns 0x00 (0000ms, 0769ms total)
T02BC 001:625 JLINK_WriteReg(R8, 0x00000000)  returns 0x00 (0000ms, 0769ms total)
T02BC 001:625 JLINK_WriteReg(R9, 0x00202720)  returns 0x00 (0000ms, 0769ms total)
T02BC 001:625 JLINK_WriteReg(R10, 0x00000000)  returns 0x00 (0000ms, 0769ms total)
T02BC 001:625 JLINK_WriteReg(R11, 0x00000000)  returns 0x00 (0000ms, 0769ms total)
T02BC 001:625 JLINK_WriteReg(R12, 0x00000000)  returns 0x00 (0000ms, 0769ms total)
T02BC 001:625 JLINK_WriteReg(R13 (SP), 0x00204000)  returns 0x00 (0000ms, 0769ms total)
T02BC 001:625 JLINK_WriteReg(R14, 0x00200001)  returns 0x00 (0000ms, 0769ms total)
T02BC 001:625 JLINK_WriteReg(R15 (PC), 0x00200178)  returns 0x00 (0000ms, 0769ms total)
T02BC 001:625 JLINK_WriteReg(XPSR, 0x01000000)  returns 0x00 (0000ms, 0769ms total)
T02BC 001:625 JLINK_WriteReg(MSP, 0x00204000)  returns 0x00 (0000ms, 0769ms total)
T02BC 001:625 JLINK_WriteReg(PSP, 0x00204000)  returns 0x00 (0000ms, 0769ms total)
T02BC 001:625 JLINK_WriteReg(CFBP, 0x00000000)  returns 0x00 (0000ms, 0769ms total)
T02BC 001:625 JLINK_SetBPEx(Addr = 0x00200000, Type = 0xFFFFFFF2)  returns 0x0000000F (0000ms, 0769ms total)
T02BC 001:625 JLINK_Go() -- CPU_WriteMem(4 bytes @ 0xE0002000) -- CPU_ReadMem(4 bytes @ 0xE0001000) (0003ms, 0772ms total)
T02BC 001:628 JLINK_IsHalted()  returns FALSE (0000ms, 0772ms total)
T02BC 001:680 JLINK_IsHalted()  returns FALSE (0000ms, 0772ms total)
T02BC 001:731 JLINK_IsHalted()  returns TRUE (0003ms, 0775ms total)
T02BC 001:734 JLINK_ReadReg(R15 (PC))  returns 0x00200000 (0000ms, 0772ms total)
T02BC 001:734 JLINK_ClrBPEx(BPHandle = 0x0000000F)  returns 0x00 (0000ms, 0772ms total)
T02BC 001:734 JLINK_ReadReg(R0)  returns 0x00000000 (0000ms, 0772ms total)
T02BC 001:735 JLINK_WriteReg(R0, 0x00815000)  returns 0x00 (0000ms, 0772ms total)
T02BC 001:735 JLINK_WriteReg(R1, 0x00001000)  returns 0x00 (0000ms, 0772ms total)
T02BC 001:735 JLINK_WriteReg(R2, 0x000000FF)  returns 0x00 (0000ms, 0772ms total)
T02BC 001:735 JLINK_WriteReg(R3, 0x00000000)  returns 0x00 (0000ms, 0772ms total)
T02BC 001:735 JLINK_WriteReg(R4, 0x00000000)  returns 0x00 (0000ms, 0772ms total)
T02BC 001:735 JLINK_WriteReg(R5, 0x00000000)  returns 0x00 (0000ms, 0772ms total)
T02BC 001:735 JLINK_WriteReg(R6, 0x00000000)  returns 0x00 (0000ms, 0772ms total)
T02BC 001:735 JLINK_WriteReg(R7, 0x00000000)  returns 0x00 (0000ms, 0772ms total)
T02BC 001:735 JLINK_WriteReg(R8, 0x00000000)  returns 0x00 (0000ms, 0772ms total)
T02BC 001:735 JLINK_WriteReg(R9, 0x00202720)  returns 0x00 (0000ms, 0772ms total)
T02BC 001:735 JLINK_WriteReg(R10, 0x00000000)  returns 0x00 (0000ms, 0772ms total)
T02BC 001:735 JLINK_WriteReg(R11, 0x00000000)  returns 0x00 (0000ms, 0772ms total)
T02BC 001:735 JLINK_WriteReg(R12, 0x00000000)  returns 0x00 (0000ms, 0772ms total)
T02BC 001:735 JLINK_WriteReg(R13 (SP), 0x00204000)  returns 0x00 (0000ms, 0772ms total)
T02BC 001:735 JLINK_WriteReg(R14, 0x00200001)  returns 0x00 (0001ms, 0773ms total)
T02BC 001:736 JLINK_WriteReg(R15 (PC), 0x00200020)  returns 0x00 (0000ms, 0773ms total)
T02BC 001:736 JLINK_WriteReg(XPSR, 0x01000000)  returns 0x00 (0000ms, 0773ms total)
T02BC 001:736 JLINK_WriteReg(MSP, 0x00204000)  returns 0x00 (0000ms, 0773ms total)
T02BC 001:736 JLINK_WriteReg(PSP, 0x00204000)  returns 0x00 (0000ms, 0773ms total)
T02BC 001:736 JLINK_WriteReg(CFBP, 0x00000000)  returns 0x00 (0000ms, 0773ms total)
T02BC 001:736 JLINK_SetBPEx(Addr = 0x00200000, Type = 0xFFFFFFF2)  returns 0x00000010 (0000ms, 0773ms total)
T02BC 001:736 JLINK_Go() -- CPU_WriteMem(4 bytes @ 0xE0002000) -- CPU_ReadMem(4 bytes @ 0xE0001000) (0003ms, 0776ms total)
T02BC 001:739 JLINK_IsHalted()  returns TRUE (0003ms, 0779ms total)
T02BC 001:742 JLINK_ReadReg(R15 (PC))  returns 0x00200000 (0000ms, 0776ms total)
T02BC 001:742 JLINK_ClrBPEx(BPHandle = 0x00000010)  returns 0x00 (0000ms, 0776ms total)
T02BC 001:742 JLINK_ReadReg(R0)  returns 0x00000001 (0000ms, 0776ms total)
T02BC 001:742 JLINK_WriteReg(R0, 0x00815000)  returns 0x00 (0000ms, 0776ms total)
T02BC 001:742 JLINK_WriteReg(R1, 0x00001000)  returns 0x00 (0000ms, 0776ms total)
T02BC 001:742 JLINK_WriteReg(R2, 0x000000FF)  returns 0x00 (0000ms, 0776ms total)
T02BC 001:742 JLINK_WriteReg(R3, 0x00000000)  returns 0x00 (0000ms, 0776ms total)
T02BC 001:742 JLINK_WriteReg(R4, 0x00000000)  returns 0x00 (0000ms, 0776ms total)
T02BC 001:742 JLINK_WriteReg(R5, 0x00000000)  returns 0x00 (0000ms, 0776ms total)
T02BC 001:742 JLINK_WriteReg(R6, 0x00000000)  returns 0x00 (0000ms, 0776ms total)
T02BC 001:742 JLINK_WriteReg(R7, 0x00000000)  returns 0x00 (0001ms, 0777ms total)
T02BC 001:743 JLINK_WriteReg(R8, 0x00000000)  returns 0x00 (0000ms, 0777ms total)
T02BC 001:743 JLINK_WriteReg(R9, 0x00202720)  returns 0x00 (0000ms, 0777ms total)
T02BC 001:743 JLINK_WriteReg(R10, 0x00000000)  returns 0x00 (0000ms, 0777ms total)
T02BC 001:743 JLINK_WriteReg(R11, 0x00000000)  returns 0x00 (0000ms, 0777ms total)
T02BC 001:743 JLINK_WriteReg(R12, 0x00000000)  returns 0x00 (0000ms, 0777ms total)
T02BC 001:743 JLINK_WriteReg(R13 (SP), 0x00204000)  returns 0x00 (0000ms, 0777ms total)
T02BC 001:743 JLINK_WriteReg(R14, 0x00200001)  returns 0x00 (0000ms, 0777ms total)
T02BC 001:743 JLINK_WriteReg(R15 (PC), 0x00200178)  returns 0x00 (0000ms, 0777ms total)
T02BC 001:743 JLINK_WriteReg(XPSR, 0x01000000)  returns 0x00 (0000ms, 0777ms total)
T02BC 001:743 JLINK_WriteReg(MSP, 0x00204000)  returns 0x00 (0000ms, 0777ms total)
T02BC 001:743 JLINK_WriteReg(PSP, 0x00204000)  returns 0x00 (0000ms, 0777ms total)
T02BC 001:743 JLINK_WriteReg(CFBP, 0x00000000)  returns 0x00 (0000ms, 0777ms total)
T02BC 001:743 JLINK_SetBPEx(Addr = 0x00200000, Type = 0xFFFFFFF2)  returns 0x00000011 (0000ms, 0777ms total)
T02BC 001:743 JLINK_Go() -- CPU_WriteMem(4 bytes @ 0xE0002000) -- CPU_ReadMem(4 bytes @ 0xE0001000) (0003ms, 0780ms total)
T02BC 001:746 JLINK_IsHalted()  returns FALSE (0000ms, 0780ms total)
T02BC 001:798 JLINK_IsHalted()  returns FALSE (0000ms, 0780ms total)
T02BC 001:848 JLINK_IsHalted()  returns TRUE (0003ms, 0783ms total)
T02BC 001:851 JLINK_ReadReg(R15 (PC))  returns 0x00200000 (0000ms, 0780ms total)
T02BC 001:851 JLINK_ClrBPEx(BPHandle = 0x00000011)  returns 0x00 (0000ms, 0780ms total)
T02BC 001:851 JLINK_ReadReg(R0)  returns 0x00000000 (0000ms, 0780ms total)
T02BC 001:852 JLINK_WriteReg(R0, 0x00816000)  returns 0x00 (0000ms, 0780ms total)
T02BC 001:852 JLINK_WriteReg(R1, 0x00001000)  returns 0x00 (0000ms, 0780ms total)
T02BC 001:852 JLINK_WriteReg(R2, 0x000000FF)  returns 0x00 (0000ms, 0780ms total)
T02BC 001:852 JLINK_WriteReg(R3, 0x00000000)  returns 0x00 (0000ms, 0780ms total)
T02BC 001:852 JLINK_WriteReg(R4, 0x00000000)  returns 0x00 (0000ms, 0780ms total)
T02BC 001:852 JLINK_WriteReg(R5, 0x00000000)  returns 0x00 (0000ms, 0780ms total)
T02BC 001:852 JLINK_WriteReg(R6, 0x00000000)  returns 0x00 (0000ms, 0780ms total)
T02BC 001:852 JLINK_WriteReg(R7, 0x00000000)  returns 0x00 (0000ms, 0780ms total)
T02BC 001:852 JLINK_WriteReg(R8, 0x00000000)  returns 0x00 (0000ms, 0780ms total)
T02BC 001:852 JLINK_WriteReg(R9, 0x00202720)  returns 0x00 (0000ms, 0780ms total)
T02BC 001:852 JLINK_WriteReg(R10, 0x00000000)  returns 0x00 (0000ms, 0780ms total)
T02BC 001:852 JLINK_WriteReg(R11, 0x00000000)  returns 0x00 (0000ms, 0780ms total)
T02BC 001:852 JLINK_WriteReg(R12, 0x00000000)  returns 0x00 (0000ms, 0780ms total)
T02BC 001:852 JLINK_WriteReg(R13 (SP), 0x00204000)  returns 0x00 (0000ms, 0780ms total)
T02BC 001:852 JLINK_WriteReg(R14, 0x00200001)  returns 0x00 (0001ms, 0781ms total)
T02BC 001:853 JLINK_WriteReg(R15 (PC), 0x00200020)  returns 0x00 (0000ms, 0781ms total)
T02BC 001:853 JLINK_WriteReg(XPSR, 0x01000000)  returns 0x00 (0000ms, 0781ms total)
T02BC 001:853 JLINK_WriteReg(MSP, 0x00204000)  returns 0x00 (0000ms, 0781ms total)
T02BC 001:853 JLINK_WriteReg(PSP, 0x00204000)  returns 0x00 (0000ms, 0781ms total)
T02BC 001:853 JLINK_WriteReg(CFBP, 0x00000000)  returns 0x00 (0000ms, 0781ms total)
T02BC 001:853 JLINK_SetBPEx(Addr = 0x00200000, Type = 0xFFFFFFF2)  returns 0x00000012 (0000ms, 0781ms total)
T02BC 001:853 JLINK_Go() -- CPU_WriteMem(4 bytes @ 0xE0002000) -- CPU_ReadMem(4 bytes @ 0xE0001000) (0003ms, 0784ms total)
T02BC 001:856 JLINK_IsHalted()  returns TRUE (0003ms, 0787ms total)
T02BC 001:859 JLINK_ReadReg(R15 (PC))  returns 0x00200000 (0000ms, 0784ms total)
T02BC 001:859 JLINK_ClrBPEx(BPHandle = 0x00000012)  returns 0x00 (0000ms, 0784ms total)
T02BC 001:859 JLINK_ReadReg(R0)  returns 0x00000001 (0000ms, 0784ms total)
T02BC 001:859 JLINK_WriteReg(R0, 0x00816000)  returns 0x00 (0000ms, 0784ms total)
T02BC 001:859 JLINK_WriteReg(R1, 0x00001000)  returns 0x00 (0000ms, 0784ms total)
T02BC 001:859 JLINK_WriteReg(R2, 0x000000FF)  returns 0x00 (0000ms, 0784ms total)
T02BC 001:859 JLINK_WriteReg(R3, 0x00000000)  returns 0x00 (0000ms, 0784ms total)
T02BC 001:859 JLINK_WriteReg(R4, 0x00000000)  returns 0x00 (0001ms, 0785ms total)
T02BC 001:860 JLINK_WriteReg(R5, 0x00000000)  returns 0x00 (0000ms, 0785ms total)
T02BC 001:860 JLINK_WriteReg(R6, 0x00000000)  returns 0x00 (0000ms, 0785ms total)
T02BC 001:860 JLINK_WriteReg(R7, 0x00000000)  returns 0x00 (0000ms, 0785ms total)
T02BC 001:860 JLINK_WriteReg(R8, 0x00000000)  returns 0x00 (0000ms, 0785ms total)
T02BC 001:860 JLINK_WriteReg(R9, 0x00202720)  returns 0x00 (0000ms, 0785ms total)
T02BC 001:860 JLINK_WriteReg(R10, 0x00000000)  returns 0x00 (0000ms, 0785ms total)
T02BC 001:860 JLINK_WriteReg(R11, 0x00000000)  returns 0x00 (0000ms, 0785ms total)
T02BC 001:860 JLINK_WriteReg(R12, 0x00000000)  returns 0x00 (0000ms, 0785ms total)
T02BC 001:860 JLINK_WriteReg(R13 (SP), 0x00204000)  returns 0x00 (0000ms, 0785ms total)
T02BC 001:860 JLINK_WriteReg(R14, 0x00200001)  returns 0x00 (0000ms, 0785ms total)
T02BC 001:860 JLINK_WriteReg(R15 (PC), 0x00200178)  returns 0x00 (0000ms, 0785ms total)
T02BC 001:860 JLINK_WriteReg(XPSR, 0x01000000)  returns 0x00 (0000ms, 0785ms total)
T02BC 001:860 JLINK_WriteReg(MSP, 0x00204000)  returns 0x00 (0000ms, 0785ms total)
T02BC 001:860 JLINK_WriteReg(PSP, 0x00204000)  returns 0x00 (0000ms, 0785ms total)
T02BC 001:860 JLINK_WriteReg(CFBP, 0x00000000)  returns 0x00 (0000ms, 0785ms total)
T02BC 001:860 JLINK_SetBPEx(Addr = 0x00200000, Type = 0xFFFFFFF2)  returns 0x00000013 (0000ms, 0785ms total)
T02BC 001:860 JLINK_Go() -- CPU_WriteMem(4 bytes @ 0xE0002000) -- CPU_ReadMem(4 bytes @ 0xE0001000) (0003ms, 0788ms total)
